
**** 01/18/26 18:04:13 ****** PSpice Lite (October 2012) ****** ID# 10813 ****

 ** Profile: "SCHEMATIC1-bias_point"  [ c:\users\david\onedrive\desktop\tot cef\schematic\circuit-pspicefiles\schematic1\bias_point.s


 ****     CIRCUIT DESCRIPTION


******************************************************************************




** Creating circuit file "bias_point.cir" 
** WARNING: THIS AUTOMATICALLY GENERATED FILE MAY BE OVERWRITTEN BY SUBSEQUENT SIMULATIONS

*Libraries: 
* Profile Libraries :
* Local Libraries :
.LIB "C:/OrCAD/OrCAD_16.6_Lite/tools/capture/library/pspice/SMLS14BET.lib" 
.LIB "C:/OrCAD/OrCAD_16.6_Lite/tools/capture/library/pspice/MMBFJ309LT1G.lib" 
.LIB "C:/OrCAD/OrCAD_16.6_Lite/tools/capture/library/pspice/BC856B.lib" 
.LIB "C:/OrCAD/OrCAD_16.6_Lite/tools/capture/library/pspice/BC846B.lib" 
.LIB "C:/OrCAD/OrCAD_16.6_Lite/tools/capture/library/pspice/1N4148.lib" 
* From [PSPICE NETLIST] section of C:\Users\David\AppData\Roaming\SPB_Data\cdssetup\OrCAD_PSpice/16.6.0/PSpice.ini file:
.lib "nomd.lib" 

*Analysis directives: 
.OPTIONS ADVCONV
.PROBE64 V(alias(*)) I(alias(*)) W(alias(*)) D(alias(*)) NOISE(alias(*)) 
.INC "..\SCHEMATIC1.net" 



**** INCLUDING SCHEMATIC1.net ****
* source CIRCUIT
Q_Q5         N00311 N00464 N00480 QBC846B 
Q_Q6         N00287 N01092 N00476 QBC846B 
Q_Q7         N00460 N03016 N03053 QBC846B 
Q_Q4         N01322 N00311 N00460 QBC856B 
Q_Q2         N00311 N00287 N00339 QBC856B 
Q_Q3         N00287 N00287 N00343 QBC856B 
Q_Q1         N00464 N00841 N00923 QBC856B 
R_R3         N00339 N00460  100 TC=0,0 
R_R4         N00343 N00460  100 TC=0,0 
R_R12         N00488 N00480  100 TC=0,0 
R_R13         N00488 N00476  100 TC=0,0 
R_R17         N00506 N00488  15k TC=0,0 
X_U3         N00460 N03786 1N4148 
X_U4         N03786 N00841 1N4148 
R_R7         0 N00841  22k TC=0,0 
R_R2         N00923 N00460  100k TC=0,0 
R_R8         N01092 N01322  2.7k TC=0,0 
R_R9         N02230 N01092  1k TC=0,0 
J_Q8         0 N01175 N02230 JMMBFJ309LT1 
X_P2         N01179 N01175 0 POT PARAMS: SET=0.7 VALUE=100k
C_C9         0 N01179  4.7u  TC=0,0 
X_U5         N01179 N01322 1N4148 
R_R18         N00506 N01322  2k TC=0,0 
R_R1         N015341 N01322  100 TC=0,0 
R_R11         N015501 N00464  100 TC=0,0 
C_C3         N00464 N07642  33n  TC=0,0 
C_C7         0 N00464  33n  TC=0,0 
R_R10         N020011 N01322  47k TC=0,0 
R_R14         N02165 N020011  15k TC=0,0 
X_P3         0 N03016 N02165 POT PARAMS: SET=0 VALUE=10k
R_R16         N00506 N03053  2k TC=0,0 
C_C4         N03053 N03159  4.7u  TC=0,0 
R_R20         0 N03159  820 TC=0,0 
D_D1         N00460 N032970 SMLS14BET 
D_D2         0 N033130 SMLS14BET 
R_R19         N00506 N033130  1k TC=0,0 
R_R6         0 N032970  1k TC=0,0 
V_V1         N00460 0 13Vdc
V_V2         0 N00506 13Vdc
X_P4         N05875 N05875 0 POT PARAMS: SET=0 VALUE=10k
X_P1         N05867 N05867 N07642 POT PARAMS: SET=0 VALUE=10k
R_R5         N05867 N015341  1k TC=0,0 
R_R15         N05875 N015501  1k TC=0,0 
C_C5         0 N00464  4.7n  TC=0,0 
C_C1         N00464 N07642  4.7n  TC=0,0 
C_C2         N00464 N07642  10n  TC=0,0 
C_C6         0 N00464  10n  TC=0,0 
C_C8         0 N01179  4.7u  TC=0,0 

**** RESUMING bias_point.cir ****
.END

**** 01/18/26 18:04:13 ****** PSpice Lite (October 2012) ****** ID# 10813 ****

 ** Profile: "SCHEMATIC1-bias_point"  [ c:\users\david\onedrive\desktop\tot cef\schematic\circuit-pspicefiles\schematic1\bias_point.s


 ****     Diode MODEL PARAMETERS


******************************************************************************




               SMLS14BET       X_U3.1N4148     X_U4.1N4148     X_U5.1N4148     
          IS  405.890000E-24    4.352000E-09    4.352000E-09    4.352000E-09 
           N    2.4475          1.906           1.906           1.906        
         IKF     .98529                                                      
          BV                  110             110             110            
         IBV                  100.000000E-06  100.000000E-06  100.000000E-06 
          RS   15.483            .6458           .6458           .6458       
          TT                    3.480000E-09    3.480000E-09    3.480000E-09 
         CJO   38.500000E-12  704.800000E-15  704.800000E-15  704.800000E-15 
          VJ     .87273          .869            .869            .869        
           M     .20189          .03             .03             .03         
          EG    2.638                                                        


**** 01/18/26 18:04:13 ****** PSpice Lite (October 2012) ****** ID# 10813 ****

 ** Profile: "SCHEMATIC1-bias_point"  [ c:\users\david\onedrive\desktop\tot cef\schematic\circuit-pspicefiles\schematic1\bias_point.s


 ****     BJT MODEL PARAMETERS


******************************************************************************




               QBC856B         QBC846B         
               PNP             NPN             
       LEVEL    1               1            
          IS   20.140000E-15   18.220000E-15 
          BF  315.3           324.4          
          NF     .9974           .9932       
         VAF   39.15           82            
         IKF     .079            .109        
         ISE    6.578000E-15  289.400000E-18 
          NE    1.45            1.4          
          BR    8.68            8.29         
          NR     .9952           .9931       
         VAR    9.5            17.9          
         IKR     .09             .09         
         ISC   16.330000E-15    9.982000E-12 
          NC    1.15            1.763        
         ISS    0               0            
          RB   10              10            
         RBM    5.000000E-06    5            
         IRB    5.000000E-06    5.000000E-06 
          RE     .663            .649        
          RC     .718            .7014       
         CJE   11.350000E-12   12.440000E-12 
         VJE     .7071           .7579       
         MJE     .3808           .3656       
         CJC    6.395000E-12    3.347000E-12 
         VJC     .4951           .5463       
         MJC     .44             .391        
        XCJC     .6288           .6193       
         CJS    0               0            
         VJS     .75             .75         
         MJS     .333            .333        
          FC     .9059           .979        
          TF  654.600000E-12  490.800000E-12 
         XTF    5.387           9.51         
         VTF    6.245           2.927        
         ITF     .2108           .3131       
          TR   55.000000E-09   90.000000E-09 
          KF    0               0            
          AF    1               1            
          CN    2.2             2.42         
           D     .52             .87         


**** 01/18/26 18:04:13 ****** PSpice Lite (October 2012) ****** ID# 10813 ****

 ** Profile: "SCHEMATIC1-bias_point"  [ c:\users\david\onedrive\desktop\tot cef\schematic\circuit-pspicefiles\schematic1\bias_point.s


 ****     Junction FET MODEL PARAMETERS


******************************************************************************




               JMMBFJ309LT1    
               NJF             
         VTO   -1.7          
        BETA    5.560100E-03 
      LAMBDA     .02184      
          IS    1.333600E-12 
          RD     .1          
          RS     .1          
         CGD    5.351520E-12 
         CGS    5.071890E-12 
          PB    2.41896      
          KF    9.999820E-21 
          AF     .200092     


**** 01/18/26 18:04:13 ****** PSpice Lite (October 2012) ****** ID# 10813 ****

 ** Profile: "SCHEMATIC1-bias_point"  [ c:\users\david\onedrive\desktop\tot cef\schematic\circuit-pspicefiles\schematic1\bias_point.s


 ****     SMALL SIGNAL BIAS SOLUTION       TEMPERATURE =   27.000 DEG C


******************************************************************************



 NODE   VOLTAGE     NODE   VOLTAGE     NODE   VOLTAGE     NODE   VOLTAGE


(N00287)   12.3460 (N00311)   12.3160 (N00339)   12.9600 (N00343)   12.9600     

(N00460)   13.0000 (N00464)     .0059 (N00476)    -.6060 (N00480)    -.6045     

(N00488)    -.6464 (N00506)  -13.0000 (N00841)   11.8430 (N00923)   12.3430     

(N01092)     .0034 (N01175) 79.92E-06 (N01179) 114.2E-06 (N01322)     .0151     

(N02165)    -.1488 (N02230) 170.4E-06 (N03016)    -.1488 (N03053)    -.8327     

(N03159)    0.0000 (N03786)   12.4220 (N05867)     .0151 (N05875) 5.383E-09     

(N07642)     .0151 (N015341)     .0151                   (N015501)     .0054    

(N020011)    -.1092                   (N032970)   10.0180                       

(N033130)   -2.9821                   




    VOLTAGE SOURCE CURRENTS
    NAME         CURRENT

    V_V1        -2.396E-02
    V_V2        -2.343E-02

    TOTAL POWER DISSIPATION   6.16E-01  WATTS



          JOB CONCLUDED

**** 01/18/26 18:04:13 ****** PSpice Lite (October 2012) ****** ID# 10813 ****

 ** Profile: "SCHEMATIC1-bias_point"  [ c:\users\david\onedrive\desktop\tot cef\schematic\circuit-pspicefiles\schematic1\bias_point.s


 ****     JOB STATISTICS SUMMARY


******************************************************************************



  Total job time (using Solver 1)   =         .06
